Circuit: * C:\Users\Server\Dropbox\Y8-Sp\new-ee457\hw-n-proj\Project\8-bit-SR-piso\SCHMITT.asc

WARNING: Node I is floating.

Warning: Pd = 0 is less than W.
Warning: Ps = 0 is less than W.
Warning: Pd = 0 is less than W.
Warning: Ps = 0 is less than W.
Warning: Pd = 0 is less than W.
Warning: Ps = 0 is less than W.
Warning: Pd = 0 is less than W.
Warning: Ps = 0 is less than W.
Warning: Pd = 0 is less than W.
Warning: Ps = 0 is less than W.
Warning: Pd = 0 is less than W.
Warning: Ps = 0 is less than W.
.OP point found by inspection.
Semiconductor Device Operating Points:
                        --- BSIM3 MOSFETS ---
Name:        m6          m4          m2          m5          m3
Model:       pm          pm          pm          nm          nm
Id:       -0.00e+00   -0.00e+00   -0.00e+00    0.00e+00    0.00e+00
Vgs:       0.00e+00    0.00e+00    0.00e+00    0.00e+00    0.00e+00
Vds:       0.00e+00    0.00e+00    0.00e+00    0.00e+00    0.00e+00
Vbs:       0.00e+00    0.00e+00    0.00e+00    0.00e+00    0.00e+00
Vth:      -7.31e-01   -7.31e-01   -7.29e-01    5.47e-01    5.19e-01
Vdsat:    -4.53e-02   -4.60e-02   -4.61e-02    3.58e-02    3.58e-02
Gm:        0.00e+00    0.00e+00    0.00e+00    0.00e+00    0.00e+00
Gds:       2.19e-14    1.13e-13    2.39e-13    3.05e-12    1.77e-12
Gmb        0.00e+00    0.00e+00    0.00e+00    0.00e+00    0.00e+00
Cbd:       0.00e+00    0.00e+00    0.00e+00    0.00e+00    0.00e+00
Cbs:       0.00e+00    0.00e+00    0.00e+00    0.00e+00    0.00e+00
Cgsov:     2.24e-16    1.16e-15    2.32e-15    3.77e-16    9.14e-17
Cgdov:     2.24e-16    1.16e-15    2.32e-15    3.77e-16    9.14e-17
Cgbov:     3.31e-17    3.31e-17    3.31e-17    3.19e-17    3.19e-17
dQgdVgb:   1.09e-15    5.52e-15    1.11e-14    1.39e-15    3.60e-16
dQgdVdb:  -2.24e-16   -1.16e-15   -2.32e-15   -3.77e-16   -9.14e-17
dQgdVsb:  -2.24e-16   -1.16e-15   -2.32e-15   -3.77e-16   -9.14e-17
dQddVgb:  -2.24e-16   -1.16e-15   -2.32e-15   -3.77e-16   -9.14e-17
dQddVdb:   2.24e-16    1.16e-15    2.32e-15    3.77e-16    9.14e-17
dQddVsb:  -1.36e-24   -6.98e-24   -1.47e-23   -4.65e-23   -2.69e-23
dQbdVgb:  -6.47e-16   -3.21e-15   -6.40e-15   -6.41e-16   -1.77e-16
dQbdVdb:  -1.91e-25   -8.43e-25   -1.75e-24   -2.02e-23   -1.17e-23
dQbdVsb:   2.86e-20    1.48e-19    2.97e-19    2.03e-20    4.84e-21

Name:        m1
Model:       nm
Id:        0.00e+00
Vgs:       0.00e+00
Vds:       0.00e+00
Vbs:       0.00e+00
Vth:       5.60e-01
Vdsat:     3.58e-02
Gm:        0.00e+00
Gds:       4.16e-12
Gmb        0.00e+00
Cbd:       0.00e+00
Cbs:       0.00e+00
Cgsov:     7.82e-16
Cgdov:     7.82e-16
Cgbov:     3.19e-17
dQgdVgb:   2.87e-15
dQgdVdb:  -7.82e-16
dQgdVsb:  -7.82e-16
dQddVgb:  -7.82e-16
dQddVdb:   7.82e-16
dQddVsb:  -6.35e-23
dQbdVgb:  -1.31e-15
dQbdVdb:  -2.76e-23
dQbdVsb:   4.24e-20



Date: Mon May 09 19:05:48 2022
Total elapsed time: 0.102 seconds.

tnom = 27
temp = 27
method = trap
totiter = 0
traniter = 0
tranpoints = 0
accept = 0
rejected = 0
matrix size = 4
fillins = 0
solver = Normal

