Circuit: * C:\Users\Server\Dropbox\Y8-Sp\new-ee457\hw-n-proj\Project\8-bit-SR-piso\Testbench-gate-capacitances.asc

Warning: Pd = 0 is less than W.
Warning: Ps = 0 is less than W.
Warning: Pd = 0 is less than W.
Warning: Ps = 0 is less than W.
Direct Newton iteration for .op point succeeded.
Semiconductor Device Operating Points:
                        --- BSIM3 MOSFETS ---
Name:        m2          m1
Model:       pm          nm
Id:       -3.32e-12    3.32e-12
Vgs:       0.00e+00    3.30e+00
Vds:      -3.30e+00    1.29e-08
Vbs:       0.00e+00    0.00e+00
Vth:      -6.50e-01    5.19e-01
Vdsat:    -4.53e-02    1.47e+00
Gm:        3.90e-13    4.59e-13
Gds:       1.28e-14    2.58e-04
Gmb        9.55e-14    2.81e-13
Cbd:       0.00e+00    0.00e+00
Cbs:       0.00e+00    0.00e+00
Cgsov:     2.24e-16    9.78e-17
Cgdov:     1.35e-16    9.78e-17
Cgbov:     3.31e-17    3.19e-17
dQgdVgb:   1.01e-15    7.43e-16
dQgdVdb:  -1.35e-16   -3.52e-16
dQgdVsb:  -2.24e-16   -3.60e-16
dQddVgb:  -1.35e-16   -3.55e-16
dQddVdb:   1.35e-16    6.43e-16
dQddVsb:   1.94e-27   -2.17e-16
dQbdVgb:  -6.47e-16   -3.23e-17
dQbdVdb:   4.42e-25   -1.09e-16
dQbdVsb:   2.86e-20   -3.08e-17



Date: Wed Apr 27 10:19:09 2022
Total elapsed time: 0.323 seconds.

tnom = 27
temp = 27
method = trap
totiter = 12
traniter = 0
tranpoints = 0
accept = 0
rejected = 0
matrix size = 3
fillins = 0
solver = Normal
Matrix Compiler1: 50 bytes object code size
Matrix Compiler2: 175 bytes object code size
